
T17E4 000:299 SEGGER J-Link V5.10h Log File (0001ms, 0275ms total)
T17E4 000:299 DLL Compiled: Jan 21 2016 19:24:29 (0001ms, 0275ms total)
T17E4 000:299 Logging started @ 2016-05-05 16:59 (0001ms, 0275ms total)
T17E4 000:300 JLINK_SetWarnOutHandler(...) (0000ms, 0275ms total)
T17E4 000:300 JLINK_OpenEx(...)
Firmware: J-Link V9 compiled Jan 21 2016 18:49:33
Hardware: V9.30
S/N: 269305954
OEM: SEGGER-EDU
Feature(s): FlashBP, GDB  returns O.K. (0272ms, 0547ms total)
T17E4 000:572 JLINK_SetErrorOutHandler(...) (0000ms, 0547ms total)
T17E4 000:572 JLINK_ExecCommand("ProjectFile = "C:\Users\Kapil\Desktop\gitHub\IMUcode\IMU_Soft\JLinkSettings.ini"", ...)  returns 0x00 (0001ms, 0548ms total)
T17E4 000:574 JLINK_ExecCommand("Device = STM32F407VGTx", ...)Device "STM32F407VG" selected.  returns 0x00 (0002ms, 0550ms total)
T17E4 000:576 JLINK_ExecCommand("DisableConnectionTimeout", ...)  returns 0x01 (0000ms, 0550ms total)
T17E4 000:576 JLINK_GetHardwareVersion()  returns 0x16B48 (0000ms, 0550ms total)
T17E4 000:576 JLINK_GetDLLVersion()  returns 51008 (0000ms, 0550ms total)
T17E4 000:577 JLINK_GetDLLVersion()  returns 51008 (0000ms, 0550ms total)
T17E4 000:577 JLINK_GetCompileDateTime() (0000ms, 0550ms total)
T17E4 000:578 JLINK_GetFirmwareString(...) (0000ms, 0550ms total)
T17E4 000:578 JLINK_GetHardwareVersion()  returns 0x16B48 (0000ms, 0550ms total)
T17E4 000:588 JLINK_TIF_Select(JLINKARM_TIF_JTAG)  returns 0x00 (0002ms, 0552ms total)
T17E4 000:590 JLINK_SetSpeed(3000) (0000ms, 0552ms total)
T17E4 000:590 JLINK_GetIdData(...) >0x2F8 JTAG>TotalIRLen = 9, IRPrint = 0x0011 >0x30 JTAG> >0x210 JTAG> >0x40 JTAG> >0x40 JTAG> >0x40 JTAG> >0x30 JTAG> >0x40 JTAG> >0x40 JTAG> >0x40 JTAG> >0x40 JTAG> >0x40 JTAG> >0x40 JTAG> >0x40 JTAG> >0x40 JTAG> >0x40 JTAG> >0x40 JTAG> >0x40 JTAG> >0x40 JTAG> >0x40 JTAG> >0x40 JTAG> >0x40 JTAG> >0x40 JTAG> >0x40 JTAG> >0x2F8 JTAG>TotalIRLen = 9, IRPrint = 0x0011 >0x30 JTAG> >0x210 JTAG> >0x70 JTAG> >0x50 JTAG> >0x40 JTAG> >0x50 JTAG> >0x80 JTAG> >0x40 JTAG>
 >0x30 JTAG> >0x40 JTAG> >0x40 JTAG> >0x30 JTAG> >0x40 JTAG> >0x50 JTAG>Found Cortex-M4 r0p1, Little endian. -- CPU_ReadMem(4 bytes @ 0xE000EDF0) -- CPU_ReadMem(4 bytes @ 0xE0002000)FPUnit: 6 code (BP) slots and 2 literal slots -- CPU_ReadMem(4 bytes @ 0xE000EDFC) -- CPU_ReadMem(4 bytes @ 0xE0001000) -- CPU_WriteMem(4 bytes @ 0xE0001000) -- CPU_ReadMem(4 bytes @ 0xE000ED88) -- CPU_WriteMem(4 bytes @ 0xE000ED88) -- CPU_ReadMem(4 bytes @ 0xE000ED88) -- CPU_WriteMem(4 bytes @ 0xE000ED88)
CoreSight components:ROMTbl 0 @ E00FF000 -- CPU_ReadMem(16 bytes @ 0xE00FF000) -- CPU_ReadMem(16 bytes @ 0xE000EFF0) -- CPU_ReadMem(16 bytes @ 0xE000EFE0)ROMTbl 0 [0]: FFF0F000, CID: B105E00D, PID: 000BB00C SCS -- CPU_ReadMem(16 bytes @ 0xE0001FF0) -- CPU_ReadMem(16 bytes @ 0xE0001FE0)ROMTbl 0 [1]: FFF02000, CID: B105E00D, PID: 003BB002 DWT -- CPU_ReadMem(16 bytes @ 0xE0002FF0) -- CPU_ReadMem(16 bytes @ 0xE0002FE0)ROMTbl 0 [2]: FFF03000, CID: B105E00D, PID: 002BB003 FPB
 -- CPU_ReadMem(16 bytes @ 0xE0000FF0) -- CPU_ReadMem(16 bytes @ 0xE0000FE0)ROMTbl 0 [3]: FFF01000, CID: B105E00D, PID: 003BB001 ITM -- CPU_ReadMem(16 bytes @ 0xE00FF010) -- CPU_ReadMem(16 bytes @ 0xE0040FF0) -- CPU_ReadMem(16 bytes @ 0xE0040FE0)ROMTbl 0 [4]: FFF41000, CID: B105900D, PID: 000BB9A1 TPIU -- CPU_ReadMem(16 bytes @ 0xE0041FF0) -- CPU_ReadMem(16 bytes @ 0xE0041FE0)ROMTbl 0 [5]: FFF42000, CID: B105900D, PID: 000BB925 ETM ScanLen=9 NumDevices=2 aId[0]=0x4BA00477 aIrRead[0]=0 aScanLen[0]=0
 aScanRead[0]=0 (0040ms, 0592ms total)
T17E4 000:630 JLINK_JTAG_GetDeviceID(DeviceIndex = 0)  returns 0x4BA00477 (0000ms, 0592ms total)
T17E4 000:630 JLINK_JTAG_GetDeviceInfo(DeviceIndex = 0)  returns 0x00 (0000ms, 0592ms total)
T17E4 000:630 JLINK_JTAG_GetDeviceID(DeviceIndex = 1)  returns 0x6413041 (0001ms, 0593ms total)
T17E4 000:631 JLINK_JTAG_GetDeviceInfo(DeviceIndex = 1)  returns 0x00 (0000ms, 0593ms total)
T17E4 000:631 JLINK_GetDLLVersion()  returns 51008 (0000ms, 0593ms total)
T17E4 000:631 JLINK_CORE_GetFound()  returns 0xE0000FF (0000ms, 0593ms total)
T17E4 000:631 JLINK_GetDebugInfo(0x100) -- Value=0xE00FF003  returns 0x00 (0000ms, 0593ms total)
T17E4 000:631 JLINK_GetDebugInfo(0x100) -- Value=0xE00FF003  returns 0x00 (0000ms, 0593ms total)
T17E4 000:631 JLINK_GetDebugInfo(0x101) -- Value=0xE0041000  returns 0x00 (0000ms, 0593ms total)
T17E4 000:631 JLINK_GetDebugInfo(0x102) -- Value=0x00000000  returns 0x00 (0000ms, 0593ms total)
T17E4 000:631 JLINK_GetDebugInfo(0x103) -- Value=0xE0040000  returns 0x00 (0000ms, 0593ms total)
T17E4 000:631 JLINK_GetDebugInfo(0x104) -- Value=0xE0000000  returns 0x00 (0000ms, 0593ms total)
T17E4 000:631 JLINK_GetDebugInfo(0x105) -- Value=0xE0001000  returns 0x00 (0000ms, 0593ms total)
T17E4 000:631 JLINK_GetDebugInfo(0x106) -- Value=0xE0002000  returns 0x00 (0000ms, 0593ms total)
T17E4 000:631 JLINK_GetDebugInfo(0x107) -- Value=0xE000E000  returns 0x00 (0000ms, 0593ms total)
T17E4 000:631 JLINK_GetDebugInfo(0x10C) -- Value=0xE000EDF0  returns 0x00 (0000ms, 0593ms total)
T17E4 000:631 JLINK_ReadMemU32(0xE000EF40, 0x0001 Items, ...) -- CPU is running -- CPU_ReadMem(4 bytes @ 0xE000EF40) - Data: 21 00 11 10  returns 0x01 (0001ms, 0594ms total)
T17E4 000:632 JLINK_ReadMemU32(0xE000EF44, 0x0001 Items, ...) -- CPU is running -- CPU_ReadMem(4 bytes @ 0xE000EF44) - Data: 11 00 00 11  returns 0x01 (0001ms, 0595ms total)
T17E4 000:633 JLINK_ReadMemU32(0xE000ED00, 0x0001 Items, ...) -- CPU is running -- CPU_ReadMem(4 bytes @ 0xE000ED00) - Data: 41 C2 0F 41  returns 0x01 (0000ms, 0595ms total)
T17E4 000:633 JLINK_SetResetType(JLINKARM_RESET_TYPE_NORMAL)  returns JLINKARM_RESET_TYPE_NORMAL (0000ms, 0595ms total)
T17E4 000:633 JLINK_Reset() -- CPU is running -- CPU_WriteMem(4 bytes @ 0xE000EDF0) -- CPU is running -- CPU_WriteMem(4 bytes @ 0xE000EDFC) -- CPU is running -- CPU_WriteMem(4 bytes @ 0xE000ED0C) -- CPU is running -- CPU_ReadMem(4 bytes @ 0xE000EDF0) -- CPU is running -- CPU_ReadMem(4 bytes @ 0xE000EDF0) -- CPU is running -- CPU_WriteMem(4 bytes @ 0xE000EDF0) -- CPU is running -- CPU_WriteMem(4 bytes @ 0xE000EDFC) -- CPU is running -- CPU_ReadMem(4 bytes @ 0xE000EDF0) >0x80 JTAG> >0x40 JTAG> >0x30 JTAG>
 >0x40 JTAG> >0x50 JTAG> >0x40 JTAG> -- CPU_WriteMem(4 bytes @ 0xE000EDFC) -- CPU_WriteMem(4 bytes @ 0xE0001028) -- CPU_WriteMem(4 bytes @ 0xE0001038) -- CPU_WriteMem(4 bytes @ 0xE0001048) -- CPU_WriteMem(4 bytes @ 0xE0001058) -- CPU_WriteMem(4 bytes @ 0xE0002000) -- CPU_ReadMem(4 bytes @ 0xE000EDFC) -- CPU_ReadMem(4 bytes @ 0xE0001000) (0030ms, 0625ms total)
T17E4 000:663 JLINK_ReadReg(R15 (PC))  returns 0x080001AC (0000ms, 0625ms total)
T17E4 000:663 JLINK_ReadReg(XPSR)  returns 0x01000000 (0000ms, 0625ms total)
T17E4 000:663 JLINK_Halt()  returns 0x00 (0000ms, 0625ms total)
T17E4 000:663 JLINK_IsHalted()  returns TRUE (0000ms, 0625ms total)
T17E4 000:663 JLINK_ReadMemU32(0xE000EDF0, 0x0001 Items, ...) -- CPU_ReadMem(4 bytes @ 0xE000EDF0) - Data: 03 00 03 00  returns 0x01 (0001ms, 0626ms total)
T17E4 000:664 JLINK_WriteU32(0xE000EDF0, 0xA05F0003) -- CPU_WriteMem(4 bytes @ 0xE000EDF0)  returns 0x00 (0001ms, 0627ms total)
T17E4 000:665 JLINK_WriteU32(0xE000EDFC, 0x01000000) -- CPU_WriteMem(4 bytes @ 0xE000EDFC)  returns 0x00 (0000ms, 0627ms total)
T17E4 000:667 JLINK_GetHWStatus(...)  returns 0x00 (0000ms, 0627ms total)
T17E4 000:668 JLINK_GetNumBPUnits(Type = 0xFFFFFF00)  returns 0x06 (0000ms, 0627ms total)
T17E4 000:668 JLINK_GetNumBPUnits(Type = 0xF0)  returns 0x2000 (0000ms, 0627ms total)
T17E4 000:668 JLINK_GetNumWPUnits()  returns 0x04 (0000ms, 0627ms total)
T17E4 000:669 JLINK_GetSpeed()  returns 0xBB8 (0000ms, 0627ms total)
T17E4 000:669 JLINK_ReadMemU32(0xE000E004, 0x0001 Items, ...) -- CPU_ReadMem(4 bytes @ 0xE000E004) - Data: 02 00 00 00  returns 0x01 (0001ms, 0628ms total)
T17E4 000:670 JLINK_ReadMemU32(0xE000E004, 0x0001 Items, ...) -- CPU_ReadMem(4 bytes @ 0xE000E004) - Data: 02 00 00 00  returns 0x01 (0000ms, 0628ms total)
T17E4 000:670 JLINK_WriteMem(0xE0001000, 0x001C Bytes, ...) - Data: 01 00 00 00 00 00 00 00 00 00 00 00 00 00 00 00 ... -- CPU_WriteMem(28 bytes @ 0xE0001000)  returns 0x1C (0002ms, 0630ms total)
T17E4 000:672 JLINK_ReadMem (0xE0001000, 0x001C Bytes, ...) -- CPU_ReadMem(28 bytes @ 0xE0001000) - Data: 01 00 00 40 00 00 00 00 00 00 00 00 00 00 00 00 ...  returns 0x00 (0000ms, 0630ms total)
T17E4 000:672 JLINK_ReadReg(R15 (PC))  returns 0x080001AC (0000ms, 0630ms total)
T17E4 000:672 JLINK_ReadReg(XPSR)  returns 0x01000000 (0000ms, 0630ms total)
T17E4 000:803 JLINK_SetResetType(JLINKARM_RESET_TYPE_NORMAL)  returns JLINKARM_RESET_TYPE_NORMAL (0000ms, 0630ms total)
T17E4 000:803 JLINK_Reset() -- CPU_WriteMem(4 bytes @ 0xE000EDF0) -- CPU_WriteMem(4 bytes @ 0xE000EDFC) -- CPU_WriteMem(4 bytes @ 0xE000ED0C) -- CPU_ReadMem(4 bytes @ 0xE000EDF0) -- CPU_ReadMem(4 bytes @ 0xE000EDF0) -- CPU_WriteMem(4 bytes @ 0xE000EDF0) -- CPU_WriteMem(4 bytes @ 0xE000EDFC) -- CPU is running -- CPU_ReadMem(4 bytes @ 0xE000EDF0) >0x80 JTAG> >0x40 JTAG> >0x30 JTAG> >0x40 JTAG> >0x50 JTAG> >0x40 JTAG> -- CPU_WriteMem(4 bytes @ 0xE000EDFC) -- CPU_WriteMem(4 bytes @ 0xE0001028)
 -- CPU_WriteMem(4 bytes @ 0xE0001038) -- CPU_WriteMem(4 bytes @ 0xE0001048) -- CPU_WriteMem(4 bytes @ 0xE0001058) -- CPU_WriteMem(4 bytes @ 0xE0002000) -- CPU_ReadMem(4 bytes @ 0xE000EDFC) -- CPU_ReadMem(4 bytes @ 0xE0001000) (0029ms, 0659ms total)
T17E4 000:833 JLINK_ReadReg(R15 (PC))  returns 0x080001AC (0000ms, 0659ms total)
T17E4 000:833 JLINK_ReadReg(XPSR)  returns 0x01000000 (0000ms, 0659ms total)
T17E4 000:834 JLINK_ReadMem (0x080001AA, 0x0002 Bytes, ...) -- CPU_ReadMem(64 bytes @ 0x08000180) -- Updating C cache (64 bytes @ 0x08000180) -- Read from C cache (2 bytes @ 0x080001AA) - Data: 70 47  returns 0x00 (0002ms, 0661ms total)
T17E4 000:836 JLINK_ReadMem (0x080001AC, 0x003C Bytes, ...) -- CPU_ReadMem(64 bytes @ 0x080001C0) -- Updating C cache (64 bytes @ 0x080001C0) -- Read from C cache (60 bytes @ 0x080001AC) - Data: 06 48 80 47 06 48 00 47 FE E7 FE E7 FE E7 FE E7 ...  returns 0x00 (0001ms, 0662ms total)
T36CC 002:194 JLINK_SetBPEx(Addr = 0x0800073C, Type = 0xFFFFFFF2)  returns 0x00000001 (0000ms, 0662ms total)
T36CC 002:194 JLINK_SetBPEx(Addr = 0x08000728, Type = 0xFFFFFFF2)  returns 0x00000002 (0000ms, 0662ms total)
T36CC 002:194 JLINK_SetBPEx(Addr = 0x08000460, Type = 0xFFFFFFF2)  returns 0x00000003 (0000ms, 0662ms total)
T36CC 002:194 JLINK_SetBPEx(Addr = 0x08000436, Type = 0xFFFFFFF2)  returns 0x00000004 (0000ms, 0662ms total)
T36CC 002:194 JLINK_SetBPEx(Addr = 0x0800042C, Type = 0xFFFFFFF2)  returns 0x00000005 (0000ms, 0662ms total)
T36CC 002:194 JLINK_SetBPEx(Addr = 0x0800043E, Type = 0xFFFFFFF2)  returns 0x00000006 (0000ms, 0662ms total)
T36CC 002:194 JLINK_SetBPEx(Addr = 0x0800048A, Type = 0xFFFFFFF2) -- BP[0] @ 0x0800073C converted into FlashBP  returns 0x00000007 (0000ms, 0662ms total)
T36CC 002:194 JLINK_SetBPEx(Addr = 0x080004AA, Type = 0xFFFFFFF2) -- BP[1] @ 0x08000728 converted into FlashBP  returns 0x00000008 (0000ms, 0662ms total)
T36CC 002:194 JLINK_SetBPEx(Addr = 0x080004CE, Type = 0xFFFFFFF2) -- BP[2] @ 0x08000460 converted into FlashBP  returns 0x00000009 (0000ms, 0662ms total)
T36CC 002:194 JLINK_SetBPEx(Addr = 0x080004C6, Type = 0xFFFFFFF2) -- BP[3] @ 0x08000436 converted into FlashBP  returns 0x0000000A (0000ms, 0662ms total)
T36CC 002:194 JLINK_SetBPEx(Addr = 0x080004D8, Type = 0xFFFFFFF2) -- BP[4] @ 0x0800042C converted into FlashBP  returns 0x0000000B (0000ms, 0662ms total)
T36CC 002:194 JLINK_SetBPEx(Addr = 0x0800055A, Type = 0xFFFFFFF2) -- BP[5] @ 0x0800043E converted into FlashBP  returns 0x0000000C (0000ms, 0662ms total)
T36CC 002:194 JLINK_SetBPEx(Addr = 0x0800056C, Type = 0xFFFFFFF2) -- BP[6] @ 0x0800048A converted into FlashBP  returns 0x0000000D (0000ms, 0662ms total)
T36CC 002:194 JLINK_SetBPEx(Addr = 0x08000588, Type = 0xFFFFFFF2) -- BP[7] @ 0x080004AA converted into FlashBP  returns 0x0000000E (0000ms, 0662ms total)
T36CC 002:194 JLINK_SetBPEx(Addr = 0x08000592, Type = 0xFFFFFFF2) -- BP[8] @ 0x080004CE converted into FlashBP  returns 0x0000000F (0000ms, 0662ms total)
T36CC 002:194 JLINK_SetBPEx(Addr = 0x08000444, Type = 0xFFFFFFF2) -- BP[9] @ 0x080004C6 converted into FlashBP  returns 0x00000010 (0000ms, 0662ms total)
T36CC 002:194 JLINK_SetBPEx(Addr = 0x08000448, Type = 0xFFFFFFF2) -- BP[10] @ 0x080004D8 converted into FlashBP  returns 0x00000011 (0000ms, 0662ms total)
T36CC 002:194 JLINK_SetBPEx(Addr = 0x08000468, Type = 0xFFFFFFF2) -- BP[11] @ 0x0800055A converted into FlashBP  returns 0x00000012 (0000ms, 0662ms total)
T36CC 002:194 JLINK_Go() -- Read from C cache (2 bytes @ 0x080001AC) -- CPU_ReadMem(4 bytes @ 0xE000ED18) -- CPU_WriteMem(4 bytes @ 0xE000ED18) -- CPU_ReadMem(4 bytes @ 0xE000ED18) -- CPU_WriteMem(4 bytes @ 0xE000ED18) -- Read from C cache (4 bytes @ 0x080001C8) -- Simulated -- Read from C cache (2 bytes @ 0x080001AE) -- Simulated -- CPU_ReadMem(64 bytes @ 0x080002C0) -- Updating C cache (64 bytes @ 0x080002C0) -- Read from C cache (2 bytes @ 0x080002CC) -- CPU_WriteMem(8 bytes @ 0x2001BDD8) -- Simulated
 -- Read from C cache (2 bytes @ 0x080002CE) -- CPU_ReadMem(64 bytes @ 0x080003C0) -- Updating C cache (64 bytes @ 0x080003C0) -- Read from C cache (4 bytes @ 0x080003E4) -- Simulated -- Read from C cache (2 bytes @ 0x080002D0) -- Not simulated -- Start of preparing flash programming -- CPU clock frequency: 15797 kHz -- End of preparing flash programming -- CPU is running -- CPU_ReadMem(16384 bytes @ 0x08000000) -- Updating flash cache (16384 bytes @ 0x08000000)
 -- Programming range 0x08000000 - 0x08003FFF (001 Sector, 16 KB) -- Start of restoring -- End of restoring -- CPU_WriteMem(4 bytes @ 0xE0002000) -- CPU_ReadMem(4 bytes @ 0xE0002008) -- CPU_WriteMem(4 bytes @ 0xE000EDF4) -- CPU_ReadMem(4 bytes @ 0xE000EDF8) -- CPU_WriteMem(4 bytes @ 0xE0002008) -- CPU_WriteMem(4 bytes @ 0xE000EDF8) -- CPU_WriteMem(4 bytes @ 0xE000EDF4) -- CPU_WriteMem(4 bytes @ 0xE000EDF0) -- CPU_WriteMem(4 bytes @ 0xE000EDF0) -- CPU_ReadMem(4 bytes @ 0xE000EDF0)
 -- CPU_WriteMem(4 bytes @ 0xE000EDF0) -- CPU_WriteMem(4 bytes @ 0xE0002008) -- CPU_WriteMem(4 bytes @ 0xE000EDF8) -- CPU_WriteMem(4 bytes @ 0xE000EDF4) -- CPU_ReadMem(4 bytes @ 0xE0001000) -- CPU_WriteMem(4 bytes @ 0xE0002008) -- CPU_WriteMem(4 bytes @ 0xE000200C) -- CPU_WriteMem(4 bytes @ 0xE0002010) -- CPU_WriteMem(4 bytes @ 0xE0002014) -- CPU_WriteMem(4 bytes @ 0xE0002018) -- CPU_WriteMem(4 bytes @ 0xE000201C) (0699ms, 1361ms total)
T36CC 002:993 JLINK_IsHalted()  returns TRUE (0003ms, 1364ms total)
T36CC 002:996 JLINK_Halt()  returns 0x00 (0000ms, 1361ms total)
T36CC 002:996 JLINK_IsHalted()  returns TRUE (0000ms, 1361ms total)
T36CC 002:996 JLINK_IsHalted()  returns TRUE (0000ms, 1361ms total)
T36CC 002:996 JLINK_IsHalted()  returns TRUE (0000ms, 1361ms total)
T36CC 002:996 JLINK_ReadReg(R15 (PC))  returns 0x0800073C (0000ms, 1361ms total)
T36CC 002:997 JLINK_ReadReg(XPSR)  returns 0x61000000 (0000ms, 1362ms total)
T36CC 002:997 JLINK_ClrBPEx(BPHandle = 0x00000001)  returns 0x00 (0000ms, 1362ms total)
T36CC 002:997 JLINK_ClrBPEx(BPHandle = 0x00000002)  returns 0x00 (0000ms, 1362ms total)
T36CC 002:997 JLINK_ClrBPEx(BPHandle = 0x00000003)  returns 0x00 (0000ms, 1362ms total)
T36CC 002:997 JLINK_ClrBPEx(BPHandle = 0x00000004)  returns 0x00 (0000ms, 1362ms total)
T36CC 002:997 JLINK_ClrBPEx(BPHandle = 0x00000005)  returns 0x00 (0000ms, 1362ms total)
T36CC 002:997 JLINK_ClrBPEx(BPHandle = 0x00000006)  returns 0x00 (0000ms, 1362ms total)
T36CC 002:997 JLINK_ClrBPEx(BPHandle = 0x00000007)  returns 0x00 (0000ms, 1362ms total)
T36CC 002:997 JLINK_ClrBPEx(BPHandle = 0x00000008)  returns 0x00 (0000ms, 1362ms total)
T36CC 002:997 JLINK_ClrBPEx(BPHandle = 0x00000009)  returns 0x00 (0000ms, 1362ms total)
T36CC 002:997 JLINK_ClrBPEx(BPHandle = 0x0000000A)  returns 0x00 (0000ms, 1362ms total)
T36CC 002:997 JLINK_ClrBPEx(BPHandle = 0x0000000B)  returns 0x00 (0000ms, 1362ms total)
T36CC 002:997 JLINK_ClrBPEx(BPHandle = 0x0000000C)  returns 0x00 (0000ms, 1362ms total)
T36CC 002:997 JLINK_ClrBPEx(BPHandle = 0x0000000D)  returns 0x00 (0000ms, 1362ms total)
T36CC 002:997 JLINK_ClrBPEx(BPHandle = 0x0000000E)  returns 0x00 (0000ms, 1362ms total)
T36CC 002:997 JLINK_ClrBPEx(BPHandle = 0x0000000F)  returns 0x00 (0000ms, 1362ms total)
T36CC 002:997 JLINK_ClrBPEx(BPHandle = 0x00000010)  returns 0x00 (0000ms, 1362ms total)
T36CC 002:997 JLINK_ClrBPEx(BPHandle = 0x00000011)  returns 0x00 (0000ms, 1362ms total)
T36CC 002:997 JLINK_ClrBPEx(BPHandle = 0x00000012)  returns 0x00 (0000ms, 1362ms total)
T36CC 002:997 JLINK_ReadMemU32(0xE000ED30, 0x0001 Items, ...) -- CPU_ReadMem(4 bytes @ 0xE000ED30) - Data: 02 00 00 00  returns 0x01 (0001ms, 1363ms total)
T36CC 002:998 JLINK_ReadMemU32(0xE0001028, 0x0001 Items, ...) -- CPU_ReadMem(4 bytes @ 0xE0001028) - Data: 00 00 00 00  returns 0x01 (0001ms, 1364ms total)
T36CC 002:999 JLINK_ReadMemU32(0xE0001038, 0x0001 Items, ...) -- CPU_ReadMem(4 bytes @ 0xE0001038) - Data: 00 02 00 00  returns 0x01 (0001ms, 1365ms total)
T36CC 003:000 JLINK_ReadMemU32(0xE0001048, 0x0001 Items, ...) -- CPU_ReadMem(4 bytes @ 0xE0001048) - Data: 00 00 00 00  returns 0x01 (0000ms, 1365ms total)
T36CC 003:000 JLINK_ReadMemU32(0xE0001058, 0x0001 Items, ...) -- CPU_ReadMem(4 bytes @ 0xE0001058) - Data: 00 00 00 00  returns 0x01 (0001ms, 1366ms total)
T36CC 003:002 JLINK_ReadReg(R0)  returns 0x0800073D (0000ms, 1366ms total)
T36CC 003:002 JLINK_ReadReg(R1)  returns 0x2001BDE0 (0000ms, 1366ms total)
T36CC 003:002 JLINK_ReadReg(R2)  returns 0x00000000 (0000ms, 1366ms total)
T36CC 003:002 JLINK_ReadReg(R3)  returns 0x0800C311 (0000ms, 1366ms total)
T36CC 003:002 JLINK_ReadReg(R4)  returns 0x08037CB4 (0000ms, 1366ms total)
T36CC 003:002 JLINK_ReadReg(R5)  returns 0x08037CB4 (0000ms, 1366ms total)
T36CC 003:002 JLINK_ReadReg(R6)  returns 0x00000000 (0000ms, 1366ms total)
T36CC 003:002 JLINK_ReadReg(R7)  returns 0x00000000 (0000ms, 1366ms total)
T36CC 003:002 JLINK_ReadReg(R8)  returns 0x00000000 (0000ms, 1366ms total)
T36CC 003:002 JLINK_ReadReg(R9)  returns 0x00000000 (0000ms, 1366ms total)
T36CC 003:002 JLINK_ReadReg(R10)  returns 0x00000000 (0000ms, 1366ms total)
T36CC 003:003 JLINK_ReadReg(R11)  returns 0x00000000 (0000ms, 1366ms total)
T36CC 003:003 JLINK_ReadReg(R12)  returns 0x00000000 (0000ms, 1366ms total)
T36CC 003:003 JLINK_ReadReg(R13 (SP))  returns 0x2001BDE0 (0000ms, 1366ms total)
T36CC 003:003 JLINK_ReadReg(R14)  returns 0x0800AB59 (0000ms, 1366ms total)
T36CC 003:003 JLINK_ReadReg(R15 (PC))  returns 0x0800073C (0000ms, 1366ms total)
T36CC 003:003 JLINK_ReadReg(XPSR)  returns 0x61000000 (0000ms, 1366ms total)
T36CC 003:003 JLINK_ReadReg(MSP)  returns 0x2001BDE0 (0000ms, 1366ms total)
T36CC 003:003 JLINK_ReadReg(PSP)  returns 0x00000000 (0000ms, 1366ms total)
T36CC 003:003 JLINK_ReadReg(CFBP)  returns 0x00000000 (0000ms, 1366ms total)
T36CC 003:003 JLINK_ReadReg(FPSCR)  returns 0x00000000 (0005ms, 1371ms total)
T36CC 003:008 JLINK_ReadReg(FPS0)  returns 0x00000000 (0000ms, 1371ms total)
T36CC 003:008 JLINK_ReadReg(FPS1)  returns 0x00000000 (0000ms, 1371ms total)
T36CC 003:008 JLINK_ReadReg(FPS2)  returns 0x00000000 (0000ms, 1371ms total)
T36CC 003:008 JLINK_ReadReg(FPS3)  returns 0x00000000 (0000ms, 1371ms total)
T36CC 003:008 JLINK_ReadReg(FPS4)  returns 0x00000000 (0000ms, 1371ms total)
T36CC 003:008 JLINK_ReadReg(FPS5)  returns 0x00000000 (0000ms, 1371ms total)
T36CC 003:008 JLINK_ReadReg(FPS6)  returns 0x00000000 (0000ms, 1371ms total)
T36CC 003:008 JLINK_ReadReg(FPS7)  returns 0x00000000 (0000ms, 1371ms total)
T36CC 003:008 JLINK_ReadReg(FPS8)  returns 0x00000000 (0001ms, 1372ms total)
T36CC 003:009 JLINK_ReadReg(FPS9)  returns 0x00000000 (0000ms, 1372ms total)
T36CC 003:009 JLINK_ReadReg(FPS10)  returns 0x00000000 (0000ms, 1372ms total)
T36CC 003:009 JLINK_ReadReg(FPS11)  returns 0x00000000 (0000ms, 1372ms total)
T36CC 003:009 JLINK_ReadReg(FPS12)  returns 0x00000000 (0000ms, 1372ms total)
T36CC 003:009 JLINK_ReadReg(FPS13)  returns 0x00000000 (0000ms, 1372ms total)
T36CC 003:009 JLINK_ReadReg(FPS14)  returns 0x00000000 (0000ms, 1372ms total)
T36CC 003:009 JLINK_ReadReg(FPS15)  returns 0x00000000 (0000ms, 1372ms total)
T36CC 003:009 JLINK_ReadReg(FPS16)  returns 0x00000000 (0000ms, 1372ms total)
T36CC 003:009 JLINK_ReadReg(FPS17)  returns 0x00000000 (0000ms, 1372ms total)
T36CC 003:009 JLINK_ReadReg(FPS18)  returns 0x00000000 (0000ms, 1372ms total)
T36CC 003:009 JLINK_ReadReg(FPS19)  returns 0x00000000 (0000ms, 1372ms total)
T36CC 003:009 JLINK_ReadReg(FPS20)  returns 0x00000000 (0000ms, 1372ms total)
T36CC 003:009 JLINK_ReadReg(FPS21)  returns 0x00000000 (0000ms, 1372ms total)
T36CC 003:009 JLINK_ReadReg(FPS22)  returns 0x00000000 (0000ms, 1372ms total)
T36CC 003:009 JLINK_ReadReg(FPS23)  returns 0x00000000 (0000ms, 1372ms total)
T36CC 003:009 JLINK_ReadReg(FPS24)  returns 0x00000000 (0000ms, 1372ms total)
T36CC 003:009 JLINK_ReadReg(FPS25)  returns 0x00000000 (0000ms, 1372ms total)
T36CC 003:009 JLINK_ReadReg(FPS26)  returns 0x00000000 (0000ms, 1372ms total)
T36CC 003:009 JLINK_ReadReg(FPS27)  returns 0x00000000 (0000ms, 1372ms total)
T36CC 003:009 JLINK_ReadReg(FPS28)  returns 0x00000000 (0000ms, 1372ms total)
T36CC 003:009 JLINK_ReadReg(FPS29)  returns 0x00000000 (0000ms, 1372ms total)
T36CC 003:009 JLINK_ReadReg(FPS30)  returns 0x00000000 (0000ms, 1372ms total)
T36CC 003:009 JLINK_ReadReg(FPS31)  returns 0x00000000 (0000ms, 1372ms total)
T17E4 003:013 JLINK_ReadMemU32(0xE0001004, 0x0001 Items, ...) -- CPU_ReadMem(4 bytes @ 0xE0001004) - Data: E1 CA 68 03  returns 0x01 (0001ms, 1373ms total)
T17E4 003:016 JLINK_ReadMem (0x0800073A, 0x0002 Bytes, ...) -- Read from flash cache (2 bytes @ 0x0800073A) - Data: 10 BD  returns 0x00 (0000ms, 1373ms total)
T17E4 003:016 JLINK_ReadMem (0x0800073C, 0x003C Bytes, ...) -- Read from flash cache (60 bytes @ 0x0800073C) -- Merging zombie BP[0]: 0xF7FF @ 0x0800073C - Data: FF F7 C6 FD A8 20 00 F0 B9 F8 00 21 05 20 01 F0 ...  returns 0x00 (0000ms, 1373ms total)
T36CC 003:920 JLINK_SetBPEx(Addr = 0x08000728, Type = 0xFFFFFFF2)  returns 0x00000013 (0000ms, 1373ms total)
T36CC 003:920 JLINK_SetBPEx(Addr = 0x08000460, Type = 0xFFFFFFF2)  returns 0x00000014 (0000ms, 1373ms total)
T36CC 003:920 JLINK_SetBPEx(Addr = 0x08000436, Type = 0xFFFFFFF2)  returns 0x00000015 (0000ms, 1373ms total)
T36CC 003:920 JLINK_SetBPEx(Addr = 0x0800042C, Type = 0xFFFFFFF2)  returns 0x00000016 (0000ms, 1373ms total)
T36CC 003:920 JLINK_SetBPEx(Addr = 0x0800043E, Type = 0xFFFFFFF2)  returns 0x00000017 (0000ms, 1373ms total)
T36CC 003:920 JLINK_SetBPEx(Addr = 0x0800048A, Type = 0xFFFFFFF2)  returns 0x00000018 (0000ms, 1373ms total)
T36CC 003:920 JLINK_SetBPEx(Addr = 0x080004AA, Type = 0xFFFFFFF2)  returns 0x00000019 (0000ms, 1373ms total)
T36CC 003:920 JLINK_SetBPEx(Addr = 0x080004CE, Type = 0xFFFFFFF2)  returns 0x0000001A (0000ms, 1373ms total)
T36CC 003:920 JLINK_SetBPEx(Addr = 0x080004C6, Type = 0xFFFFFFF2)  returns 0x0000001B (0000ms, 1373ms total)
T36CC 003:920 JLINK_SetBPEx(Addr = 0x080004D8, Type = 0xFFFFFFF2)  returns 0x0000001C (0000ms, 1373ms total)
T36CC 003:920 JLINK_SetBPEx(Addr = 0x0800055A, Type = 0xFFFFFFF2)  returns 0x0000001D (0000ms, 1373ms total)
T36CC 003:920 JLINK_SetBPEx(Addr = 0x0800056C, Type = 0xFFFFFFF2)  returns 0x0000001E (0000ms, 1373ms total)
T36CC 003:920 JLINK_SetBPEx(Addr = 0x08000588, Type = 0xFFFFFFF2)  returns 0x0000001F (0000ms, 1373ms total)
T36CC 003:920 JLINK_SetBPEx(Addr = 0x08000592, Type = 0xFFFFFFF2)  returns 0x00000020 (0000ms, 1373ms total)
T36CC 003:920 JLINK_SetBPEx(Addr = 0x08000444, Type = 0xFFFFFFF2)  returns 0x00000021 (0000ms, 1373ms total)
T36CC 003:920 JLINK_SetBPEx(Addr = 0x08000448, Type = 0xFFFFFFF2)  returns 0x00000022 (0000ms, 1373ms total)
T36CC 003:921 JLINK_SetBPEx(Addr = 0x08000468, Type = 0xFFFFFFF2)  returns 0x00000023 (0000ms, 1374ms total)
T36CC 003:921 JLINK_Go() -- Merging zombie BP[0]: 0xF7FF @ 0x0800073C -- Merging zombie BP[0]: 0xF7FF @ 0x0800073C -- Read from flash cache (2 bytes @ 0x0800073E) -- Simulated -- Read from flash cache (2 bytes @ 0x080002CC) -- CPU_WriteMem(8 bytes @ 0x2001BDD8) -- Simulated -- Read from flash cache (2 bytes @ 0x080002CE) -- Read from flash cache (4 bytes @ 0x080003E4) -- Simulated -- Read from flash cache (2 bytes @ 0x080002D0) -- Not simulated -- Start of preparing flash programming
 -- CPU clock frequency: 169038 kHz -- End of preparing flash programming -- Read from flash cache (16384 bytes @ 0x08000000) -- Programming range 0x08000000 - 0x08003FFF (001 Sector, 16 KB) -- Start of restoring -- End of restoring -- CPU_WriteMem(4 bytes @ 0xE0002000) -- CPU_ReadMem(4 bytes @ 0xE0002008) -- CPU_WriteMem(4 bytes @ 0xE000EDF4) -- CPU_ReadMem(4 bytes @ 0xE000EDF8) -- CPU_WriteMem(4 bytes @ 0xE0002008) -- CPU_WriteMem(4 bytes @ 0xE000EDF8) -- CPU_WriteMem(4 bytes @ 0xE000EDF4)
 -- CPU_WriteMem(4 bytes @ 0xE000EDF0) -- CPU_WriteMem(4 bytes @ 0xE000EDF0) -- CPU_ReadMem(4 bytes @ 0xE000EDF0) -- CPU_WriteMem(4 bytes @ 0xE000EDF0) -- CPU_WriteMem(4 bytes @ 0xE0002008) -- CPU_WriteMem(4 bytes @ 0xE000EDF8) -- CPU_WriteMem(4 bytes @ 0xE000EDF4) -- CPU_ReadMem(4 bytes @ 0xE0001000) -- CPU_WriteMem(4 bytes @ 0xE0002008) -- CPU_WriteMem(4 bytes @ 0xE000200C) -- CPU_WriteMem(4 bytes @ 0xE0002010) -- CPU_WriteMem(4 bytes @ 0xE0002014) -- CPU_WriteMem(4 bytes @ 0xE0002018)
 -- CPU_WriteMem(4 bytes @ 0xE000201C) (0625ms, 1999ms total)
T36CC 004:647 JLINK_IsHalted()  returns TRUE (0003ms, 2002ms total)
T36CC 004:650 JLINK_Halt()  returns 0x00 (0000ms, 1999ms total)
T36CC 004:650 JLINK_IsHalted()  returns TRUE (0000ms, 1999ms total)
T36CC 004:650 JLINK_IsHalted()  returns TRUE (0000ms, 1999ms total)
T36CC 004:650 JLINK_IsHalted()  returns TRUE (0000ms, 1999ms total)
T36CC 004:650 JLINK_ReadReg(R15 (PC))  returns 0x0800042C (0000ms, 1999ms total)
T36CC 004:650 JLINK_ReadReg(XPSR)  returns 0x21000000 (0000ms, 1999ms total)
T36CC 004:650 JLINK_ClrBPEx(BPHandle = 0x00000013)  returns 0x00 (0000ms, 1999ms total)
T36CC 004:650 JLINK_ClrBPEx(BPHandle = 0x00000014)  returns 0x00 (0000ms, 1999ms total)
T36CC 004:650 JLINK_ClrBPEx(BPHandle = 0x00000015)  returns 0x00 (0000ms, 1999ms total)
T36CC 004:650 JLINK_ClrBPEx(BPHandle = 0x00000016)  returns 0x00 (0000ms, 1999ms total)
T36CC 004:650 JLINK_ClrBPEx(BPHandle = 0x00000017)  returns 0x00 (0000ms, 1999ms total)
T36CC 004:650 JLINK_ClrBPEx(BPHandle = 0x00000018)  returns 0x00 (0001ms, 2000ms total)
T36CC 004:651 JLINK_ClrBPEx(BPHandle = 0x00000019)  returns 0x00 (0000ms, 2000ms total)
T36CC 004:651 JLINK_ClrBPEx(BPHandle = 0x0000001A)  returns 0x00 (0000ms, 2000ms total)
T36CC 004:651 JLINK_ClrBPEx(BPHandle = 0x0000001B)  returns 0x00 (0000ms, 2000ms total)
T36CC 004:651 JLINK_ClrBPEx(BPHandle = 0x0000001C)  returns 0x00 (0000ms, 2000ms total)
T36CC 004:651 JLINK_ClrBPEx(BPHandle = 0x0000001D)  returns 0x00 (0000ms, 2000ms total)
T36CC 004:651 JLINK_ClrBPEx(BPHandle = 0x0000001E)  returns 0x00 (0000ms, 2000ms total)
T36CC 004:651 JLINK_ClrBPEx(BPHandle = 0x0000001F)  returns 0x00 (0000ms, 2000ms total)
T36CC 004:651 JLINK_ClrBPEx(BPHandle = 0x00000020)  returns 0x00 (0000ms, 2000ms total)
T36CC 004:651 JLINK_ClrBPEx(BPHandle = 0x00000021)  returns 0x00 (0000ms, 2000ms total)
T36CC 004:651 JLINK_ClrBPEx(BPHandle = 0x00000022)  returns 0x00 (0000ms, 2000ms total)
T36CC 004:651 JLINK_ClrBPEx(BPHandle = 0x00000023)  returns 0x00 (0000ms, 2000ms total)
T36CC 004:651 JLINK_ReadMemU32(0xE000ED30, 0x0001 Items, ...) -- CPU_ReadMem(4 bytes @ 0xE000ED30) - Data: 02 00 00 00  returns 0x01 (0001ms, 2001ms total)
T36CC 004:652 JLINK_ReadMemU32(0xE0001028, 0x0001 Items, ...) -- CPU_ReadMem(4 bytes @ 0xE0001028) - Data: 00 00 00 00  returns 0x01 (0001ms, 2002ms total)
T36CC 004:653 JLINK_ReadMemU32(0xE0001038, 0x0001 Items, ...) -- CPU_ReadMem(4 bytes @ 0xE0001038) - Data: 00 02 00 00  returns 0x01 (0001ms, 2003ms total)
T36CC 004:654 JLINK_ReadMemU32(0xE0001048, 0x0001 Items, ...) -- CPU_ReadMem(4 bytes @ 0xE0001048) - Data: 00 00 00 00  returns 0x01 (0000ms, 2003ms total)
T36CC 004:654 JLINK_ReadMemU32(0xE0001058, 0x0001 Items, ...) -- CPU_ReadMem(4 bytes @ 0xE0001058) - Data: 00 00 00 00  returns 0x01 (0001ms, 2004ms total)
T36CC 004:655 JLINK_ReadReg(R0)  returns 0x40011000 (0000ms, 2004ms total)
T36CC 004:655 JLINK_ReadReg(R1)  returns 0x00000040 (0000ms, 2004ms total)
T36CC 004:655 JLINK_ReadReg(R2)  returns 0x00000001 (0000ms, 2004ms total)
T36CC 004:655 JLINK_ReadReg(R3)  returns 0x00000040 (0000ms, 2004ms total)
T36CC 004:655 JLINK_ReadReg(R4)  returns 0x08037CB4 (0000ms, 2004ms total)
T36CC 004:655 JLINK_ReadReg(R5)  returns 0x08037CB4 (0000ms, 2004ms total)
T36CC 004:655 JLINK_ReadReg(R6)  returns 0x00000000 (0000ms, 2004ms total)
T36CC 004:655 JLINK_ReadReg(R7)  returns 0x00000000 (0001ms, 2005ms total)
T36CC 004:656 JLINK_ReadReg(R8)  returns 0x00000000 (0000ms, 2005ms total)
T36CC 004:656 JLINK_ReadReg(R9)  returns 0x00000000 (0000ms, 2005ms total)
T36CC 004:656 JLINK_ReadReg(R10)  returns 0x00000000 (0000ms, 2005ms total)
T36CC 004:656 JLINK_ReadReg(R11)  returns 0x00000000 (0000ms, 2005ms total)
T36CC 004:656 JLINK_ReadReg(R12)  returns 0x00000150 (0000ms, 2005ms total)
T36CC 004:656 JLINK_ReadReg(R13 (SP))  returns 0x2001BDD0 (0000ms, 2005ms total)
T36CC 004:656 JLINK_ReadReg(R14)  returns 0x08003BC3 (0000ms, 2005ms total)
T36CC 004:656 JLINK_ReadReg(R15 (PC))  returns 0x0800042C (0000ms, 2005ms total)
T36CC 004:656 JLINK_ReadReg(XPSR)  returns 0x21000000 (0000ms, 2005ms total)
T36CC 004:656 JLINK_ReadReg(MSP)  returns 0x2001BDD0 (0000ms, 2005ms total)
T36CC 004:656 JLINK_ReadReg(PSP)  returns 0x00000000 (0000ms, 2005ms total)
T36CC 004:656 JLINK_ReadReg(CFBP)  returns 0x00000000 (0000ms, 2005ms total)
T36CC 004:656 JLINK_ReadReg(FPSCR)  returns 0x00000000 (0004ms, 2009ms total)
T36CC 004:660 JLINK_ReadReg(FPS0)  returns 0x00000000 (0000ms, 2009ms total)
T36CC 004:660 JLINK_ReadReg(FPS1)  returns 0x00000000 (0000ms, 2009ms total)
T36CC 004:660 JLINK_ReadReg(FPS2)  returns 0x00000000 (0000ms, 2009ms total)
T36CC 004:660 JLINK_ReadReg(FPS3)  returns 0x00000000 (0000ms, 2009ms total)
T36CC 004:660 JLINK_ReadReg(FPS4)  returns 0x00000000 (0000ms, 2009ms total)
T36CC 004:660 JLINK_ReadReg(FPS5)  returns 0x00000000 (0000ms, 2009ms total)
T36CC 004:660 JLINK_ReadReg(FPS6)  returns 0x00000000 (0000ms, 2009ms total)
T36CC 004:660 JLINK_ReadReg(FPS7)  returns 0x00000000 (0000ms, 2009ms total)
T36CC 004:660 JLINK_ReadReg(FPS8)  returns 0x00000000 (0000ms, 2009ms total)
T36CC 004:660 JLINK_ReadReg(FPS9)  returns 0x00000000 (0000ms, 2009ms total)
T36CC 004:660 JLINK_ReadReg(FPS10)  returns 0x00000000 (0000ms, 2009ms total)
T36CC 004:660 JLINK_ReadReg(FPS11)  returns 0x00000000 (0000ms, 2009ms total)
T36CC 004:660 JLINK_ReadReg(FPS12)  returns 0x00000000 (0001ms, 2010ms total)
T36CC 004:661 JLINK_ReadReg(FPS13)  returns 0x00000000 (0000ms, 2010ms total)
T36CC 004:661 JLINK_ReadReg(FPS14)  returns 0x00000000 (0000ms, 2010ms total)
T36CC 004:661 JLINK_ReadReg(FPS15)  returns 0x00000000 (0000ms, 2010ms total)
T36CC 004:661 JLINK_ReadReg(FPS16)  returns 0x00000000 (0000ms, 2010ms total)
T36CC 004:661 JLINK_ReadReg(FPS17)  returns 0x00000000 (0000ms, 2010ms total)
T36CC 004:661 JLINK_ReadReg(FPS18)  returns 0x00000000 (0000ms, 2010ms total)
T36CC 004:661 JLINK_ReadReg(FPS19)  returns 0x00000000 (0000ms, 2010ms total)
T36CC 004:661 JLINK_ReadReg(FPS20)  returns 0x00000000 (0000ms, 2010ms total)
T36CC 004:661 JLINK_ReadReg(FPS21)  returns 0x00000000 (0000ms, 2010ms total)
T36CC 004:661 JLINK_ReadReg(FPS22)  returns 0x00000000 (0000ms, 2010ms total)
T36CC 004:661 JLINK_ReadReg(FPS23)  returns 0x00000000 (0000ms, 2010ms total)
T36CC 004:661 JLINK_ReadReg(FPS24)  returns 0x00000000 (0000ms, 2010ms total)
T36CC 004:661 JLINK_ReadReg(FPS25)  returns 0x00000000 (0000ms, 2010ms total)
T36CC 004:661 JLINK_ReadReg(FPS26)  returns 0x00000000 (0000ms, 2010ms total)
T36CC 004:661 JLINK_ReadReg(FPS27)  returns 0x00000000 (0000ms, 2010ms total)
T36CC 004:661 JLINK_ReadReg(FPS28)  returns 0x00000000 (0000ms, 2010ms total)
T36CC 004:661 JLINK_ReadReg(FPS29)  returns 0x00000000 (0000ms, 2010ms total)
T36CC 004:661 JLINK_ReadReg(FPS30)  returns 0x00000000 (0000ms, 2010ms total)
T36CC 004:661 JLINK_ReadReg(FPS31)  returns 0x00000000 (0000ms, 2010ms total)
T17E4 004:661 JLINK_ReadMemU32(0xE0001004, 0x0001 Items, ...) -- CPU_ReadMem(4 bytes @ 0xE0001004) - Data: 71 54 0F 08  returns 0x01 (0001ms, 2011ms total)
T17E4 004:664 JLINK_ReadMem (0x08000428, 0x003C Bytes, ...) -- Read from flash cache (60 bytes @ 0x08000428) -- Merging zombie BP[1]: 0xA0CA @ 0x08000460 -- Merging zombie BP[2]: 0xA0C9 @ 0x08000436 -- Merging zombie BP[3]: 0xF001 @ 0x0800042C -- Merging zombie BP[4]: 0xA0CC @ 0x0800043E - Data: 03 F0 CD FB 01 F0 BE FB 05 F0 92 F8 18 B1 C9 A0 ...  returns 0x00 (0000ms, 2011ms total)
T36CC 005:538 JLINK_Step() -- Merging zombie BP[3]: 0xF001 @ 0x0800042C -- Merging zombie BP[3]: 0xF001 @ 0x0800042C -- Read from flash cache (2 bytes @ 0x0800042E) -- Simulated  returns 0x00 (0001ms, 2012ms total)
T36CC 005:539 JLINK_ReadReg(R15 (PC))  returns 0x08001BAC (0000ms, 2012ms total)
T36CC 005:539 JLINK_ReadReg(XPSR)  returns 0x21000000 (0000ms, 2012ms total)
T36CC 005:539 JLINK_SetBPEx(Addr = 0x08000728, Type = 0xFFFFFFF2)  returns 0x00000024 (0000ms, 2012ms total)
T36CC 005:539 JLINK_SetBPEx(Addr = 0x08000460, Type = 0xFFFFFFF2)  returns 0x00000025 (0000ms, 2012ms total)
T36CC 005:539 JLINK_SetBPEx(Addr = 0x08000436, Type = 0xFFFFFFF2)  returns 0x00000026 (0000ms, 2012ms total)
T36CC 005:539 JLINK_SetBPEx(Addr = 0x0800042C, Type = 0xFFFFFFF2)  returns 0x00000027 (0000ms, 2012ms total)
T36CC 005:539 JLINK_SetBPEx(Addr = 0x0800043E, Type = 0xFFFFFFF2)  returns 0x00000028 (0000ms, 2012ms total)
T36CC 005:539 JLINK_SetBPEx(Addr = 0x0800048A, Type = 0xFFFFFFF2)  returns 0x00000029 (0000ms, 2012ms total)
T36CC 005:539 JLINK_SetBPEx(Addr = 0x080004AA, Type = 0xFFFFFFF2)  returns 0x0000002A (0000ms, 2012ms total)
T36CC 005:539 JLINK_SetBPEx(Addr = 0x080004CE, Type = 0xFFFFFFF2)  returns 0x0000002B (0000ms, 2012ms total)
T36CC 005:539 JLINK_SetBPEx(Addr = 0x080004C6, Type = 0xFFFFFFF2)  returns 0x0000002C (0000ms, 2012ms total)
T36CC 005:539 JLINK_SetBPEx(Addr = 0x080004D8, Type = 0xFFFFFFF2)  returns 0x0000002D (0000ms, 2012ms total)
T36CC 005:539 JLINK_SetBPEx(Addr = 0x0800055A, Type = 0xFFFFFFF2)  returns 0x0000002E (0000ms, 2012ms total)
T36CC 005:539 JLINK_SetBPEx(Addr = 0x0800056C, Type = 0xFFFFFFF2)  returns 0x0000002F (0000ms, 2012ms total)
T36CC 005:539 JLINK_SetBPEx(Addr = 0x08000588, Type = 0xFFFFFFF2)  returns 0x00000030 (0000ms, 2012ms total)
T36CC 005:539 JLINK_SetBPEx(Addr = 0x08000592, Type = 0xFFFFFFF2)  returns 0x00000031 (0000ms, 2012ms total)
T36CC 005:539 JLINK_SetBPEx(Addr = 0x08000444, Type = 0xFFFFFFF2)  returns 0x00000032 (0001ms, 2013ms total)
T36CC 005:540 JLINK_SetBPEx(Addr = 0x08000448, Type = 0xFFFFFFF2)  returns 0x00000033 (0000ms, 2013ms total)
T36CC 005:540 JLINK_SetBPEx(Addr = 0x08000468, Type = 0xFFFFFFF2)  returns 0x00000034 (0000ms, 2013ms total)
T36CC 005:540 JLINK_Go() -- CPU_ReadMem(4 bytes @ 0xE0001000) -- CPU_WriteMem(4 bytes @ 0xE0001004) (0003ms, 2016ms total)
T36CC 005:644 JLINK_IsHalted()  returns TRUE (0003ms, 2019ms total)
T36CC 005:648 JLINK_Halt()  returns 0x00 (0000ms, 2016ms total)
T36CC 005:648 JLINK_IsHalted()  returns TRUE (0000ms, 2016ms total)
T36CC 005:648 JLINK_IsHalted()  returns TRUE (0000ms, 2016ms total)
T36CC 005:648 JLINK_IsHalted()  returns TRUE (0000ms, 2016ms total)
T36CC 005:648 JLINK_ReadReg(R15 (PC))  returns 0x0800043E (0000ms, 2016ms total)
T36CC 005:648 JLINK_ReadReg(XPSR)  returns 0x81000000 (0000ms, 2016ms total)
T36CC 005:648 JLINK_ClrBPEx(BPHandle = 0x00000024)  returns 0x00 (0000ms, 2016ms total)
T36CC 005:648 JLINK_ClrBPEx(BPHandle = 0x00000025)  returns 0x00 (0000ms, 2016ms total)
T36CC 005:648 JLINK_ClrBPEx(BPHandle = 0x00000026)  returns 0x00 (0000ms, 2016ms total)
T36CC 005:648 JLINK_ClrBPEx(BPHandle = 0x00000027)  returns 0x00 (0000ms, 2016ms total)
T36CC 005:648 JLINK_ClrBPEx(BPHandle = 0x00000028)  returns 0x00 (0000ms, 2016ms total)
T36CC 005:648 JLINK_ClrBPEx(BPHandle = 0x00000029)  returns 0x00 (0000ms, 2016ms total)
T36CC 005:648 JLINK_ClrBPEx(BPHandle = 0x0000002A)  returns 0x00 (0000ms, 2016ms total)
T36CC 005:648 JLINK_ClrBPEx(BPHandle = 0x0000002B)  returns 0x00 (0000ms, 2016ms total)
T36CC 005:648 JLINK_ClrBPEx(BPHandle = 0x0000002C)  returns 0x00 (0000ms, 2016ms total)
T36CC 005:648 JLINK_ClrBPEx(BPHandle = 0x0000002D)  returns 0x00 (0000ms, 2016ms total)
T36CC 005:648 JLINK_ClrBPEx(BPHandle = 0x0000002E)  returns 0x00 (0000ms, 2016ms total)
T36CC 005:648 JLINK_ClrBPEx(BPHandle = 0x0000002F)  returns 0x00 (0000ms, 2016ms total)
T36CC 005:648 JLINK_ClrBPEx(BPHandle = 0x00000030)  returns 0x00 (0000ms, 2016ms total)
T36CC 005:648 JLINK_ClrBPEx(BPHandle = 0x00000031)  returns 0x00 (0000ms, 2016ms total)
T36CC 005:648 JLINK_ClrBPEx(BPHandle = 0x00000032)  returns 0x00 (0001ms, 2017ms total)
T36CC 005:649 JLINK_ClrBPEx(BPHandle = 0x00000033)  returns 0x00 (0000ms, 2017ms total)
T36CC 005:649 JLINK_ClrBPEx(BPHandle = 0x00000034)  returns 0x00 (0000ms, 2017ms total)
T36CC 005:649 JLINK_ReadMemU32(0xE000ED30, 0x0001 Items, ...) -- CPU_ReadMem(4 bytes @ 0xE000ED30) - Data: 02 00 00 00  returns 0x01 (0000ms, 2017ms total)
T36CC 005:649 JLINK_ReadMemU32(0xE0001028, 0x0001 Items, ...) -- CPU_ReadMem(4 bytes @ 0xE0001028) - Data: 00 00 00 00  returns 0x01 (0001ms, 2018ms total)
T36CC 005:650 JLINK_ReadMemU32(0xE0001038, 0x0001 Items, ...) -- CPU_ReadMem(4 bytes @ 0xE0001038) - Data: 00 02 00 00  returns 0x01 (0001ms, 2019ms total)
T36CC 005:651 JLINK_ReadMemU32(0xE0001048, 0x0001 Items, ...) -- CPU_ReadMem(4 bytes @ 0xE0001048) - Data: 00 00 00 00  returns 0x01 (0000ms, 2019ms total)
T36CC 005:651 JLINK_ReadMemU32(0xE0001058, 0x0001 Items, ...) -- CPU_ReadMem(4 bytes @ 0xE0001058) - Data: 00 00 00 00  returns 0x01 (0001ms, 2020ms total)
T36CC 005:653 JLINK_ReadReg(R0)  returns 0x00000000 (0000ms, 2020ms total)
T36CC 005:653 JLINK_ReadReg(R1)  returns 0x01000031 (0000ms, 2020ms total)
T36CC 005:653 JLINK_ReadReg(R2)  returns 0x00000004 (0000ms, 2020ms total)
T36CC 005:653 JLINK_ReadReg(R3)  returns 0x01000202 (0000ms, 2020ms total)
T36CC 005:653 JLINK_ReadReg(R4)  returns 0x08037CB4 (0000ms, 2020ms total)
T36CC 005:653 JLINK_ReadReg(R5)  returns 0x08037CB4 (0000ms, 2020ms total)
T36CC 005:653 JLINK_ReadReg(R6)  returns 0x00000000 (0000ms, 2020ms total)
T36CC 005:653 JLINK_ReadReg(R7)  returns 0x00000000 (0000ms, 2020ms total)
T36CC 005:653 JLINK_ReadReg(R8)  returns 0x00000000 (0000ms, 2020ms total)
T36CC 005:653 JLINK_ReadReg(R9)  returns 0x00000000 (0000ms, 2020ms total)
T36CC 005:653 JLINK_ReadReg(R10)  returns 0x00000000 (0000ms, 2020ms total)
T36CC 005:653 JLINK_ReadReg(R11)  returns 0x00000000 (0000ms, 2020ms total)
T36CC 005:653 JLINK_ReadReg(R12)  returns 0x00000003 (0000ms, 2020ms total)
T36CC 005:653 JLINK_ReadReg(R13 (SP))  returns 0x2001BDD0 (0000ms, 2020ms total)
T36CC 005:653 JLINK_ReadReg(R14)  returns 0x080056A1 (0000ms, 2020ms total)
T36CC 005:653 JLINK_ReadReg(R15 (PC))  returns 0x0800043E (0000ms, 2020ms total)
T36CC 005:653 JLINK_ReadReg(XPSR)  returns 0x81000000 (0000ms, 2020ms total)
T36CC 005:653 JLINK_ReadReg(MSP)  returns 0x2001BDD0 (0000ms, 2020ms total)
T36CC 005:653 JLINK_ReadReg(PSP)  returns 0x00000000 (0000ms, 2020ms total)
T36CC 005:653 JLINK_ReadReg(CFBP)  returns 0x00000000 (0000ms, 2020ms total)
T36CC 005:653 JLINK_ReadReg(FPSCR)  returns 0x00000000 (0004ms, 2024ms total)
T36CC 005:657 JLINK_ReadReg(FPS0)  returns 0x00000000 (0000ms, 2024ms total)
T36CC 005:657 JLINK_ReadReg(FPS1)  returns 0x00000000 (0000ms, 2024ms total)
T36CC 005:657 JLINK_ReadReg(FPS2)  returns 0x00000000 (0000ms, 2024ms total)
T36CC 005:657 JLINK_ReadReg(FPS3)  returns 0x00000000 (0000ms, 2024ms total)
T36CC 005:657 JLINK_ReadReg(FPS4)  returns 0x00000000 (0000ms, 2024ms total)
T36CC 005:657 JLINK_ReadReg(FPS5)  returns 0x00000000 (0000ms, 2024ms total)
T36CC 005:657 JLINK_ReadReg(FPS6)  returns 0x00000000 (0000ms, 2024ms total)
T36CC 005:657 JLINK_ReadReg(FPS7)  returns 0x00000000 (0000ms, 2024ms total)
T36CC 005:657 JLINK_ReadReg(FPS8)  returns 0x00000000 (0000ms, 2024ms total)
T36CC 005:658 JLINK_ReadReg(FPS9)  returns 0x00000000 (0000ms, 2024ms total)
T36CC 005:658 JLINK_ReadReg(FPS10)  returns 0x00000000 (0000ms, 2024ms total)
T36CC 005:658 JLINK_ReadReg(FPS11)  returns 0x00000000 (0000ms, 2024ms total)
T36CC 005:658 JLINK_ReadReg(FPS12)  returns 0x00000000 (0000ms, 2024ms total)
T36CC 005:658 JLINK_ReadReg(FPS13)  returns 0x00000000 (0000ms, 2024ms total)
T36CC 005:658 JLINK_ReadReg(FPS14)  returns 0x00000000 (0000ms, 2024ms total)
T36CC 005:658 JLINK_ReadReg(FPS15)  returns 0x00000000 (0000ms, 2024ms total)
T36CC 005:658 JLINK_ReadReg(FPS16)  returns 0x00000000 (0000ms, 2024ms total)
T36CC 005:658 JLINK_ReadReg(FPS17)  returns 0x00000000 (0000ms, 2024ms total)
T36CC 005:658 JLINK_ReadReg(FPS18)  returns 0x00000000 (0000ms, 2024ms total)
T36CC 005:658 JLINK_ReadReg(FPS19)  returns 0x00000000 (0000ms, 2024ms total)
T36CC 005:658 JLINK_ReadReg(FPS20)  returns 0x00000000 (0000ms, 2024ms total)
T36CC 005:658 JLINK_ReadReg(FPS21)  returns 0x00000000 (0000ms, 2024ms total)
T36CC 005:658 JLINK_ReadReg(FPS22)  returns 0x00000000 (0000ms, 2024ms total)
T36CC 005:658 JLINK_ReadReg(FPS23)  returns 0x00000000 (0000ms, 2024ms total)
T36CC 005:658 JLINK_ReadReg(FPS24)  returns 0x00000000 (0000ms, 2024ms total)
T36CC 005:658 JLINK_ReadReg(FPS25)  returns 0x00000000 (0000ms, 2024ms total)
T36CC 005:658 JLINK_ReadReg(FPS26)  returns 0x00000000 (0000ms, 2024ms total)
T36CC 005:658 JLINK_ReadReg(FPS27)  returns 0x00000000 (0000ms, 2024ms total)
T36CC 005:658 JLINK_ReadReg(FPS28)  returns 0x00000000 (0000ms, 2024ms total)
T36CC 005:658 JLINK_ReadReg(FPS29)  returns 0x00000000 (0000ms, 2024ms total)
T36CC 005:658 JLINK_ReadReg(FPS30)  returns 0x00000000 (0000ms, 2024ms total)
T36CC 005:658 JLINK_ReadReg(FPS31)  returns 0x00000000 (0000ms, 2024ms total)
T17E4 005:658 JLINK_ReadMemU32(0xE0001004, 0x0001 Items, ...) -- CPU_ReadMem(4 bytes @ 0xE0001004) - Data: 90 78 3D 08  returns 0x01 (0001ms, 2025ms total)
T17E4 005:662 JLINK_ReadMem (0x08000436, 0x0002 Bytes, ...) -- Merging zombie BP[2]: 0xA0C9 @ 0x08000436 -- Merging zombie BP[2]: 0xA0C9 @ 0x08000436 - Data: C9 A0  returns 0x00 (0000ms, 2025ms total)
T17E4 005:662 JLINK_ReadMem (0x08000438, 0x003C Bytes, ...) -- Read from flash cache (60 bytes @ 0x08000438) -- Merging zombie BP[1]: 0xA0CA @ 0x08000460 -- Merging zombie BP[4]: 0xA0CC @ 0x0800043E - Data: 0A F0 68 FD 02 E0 CC A0 0A F0 64 FD 09 F0 E8 FA ...  returns 0x00 (0000ms, 2025ms total)
T36CC 006:631 JLINK_Step() -- Merging zombie BP[4]: 0xA0CC @ 0x0800043E -- Merging zombie BP[4]: 0xA0CC @ 0x0800043E -- Simulated  returns 0x00 (0001ms, 2026ms total)
T36CC 006:632 JLINK_ReadReg(R15 (PC))  returns 0x08000440 (0000ms, 2026ms total)
T36CC 006:632 JLINK_ReadReg(XPSR)  returns 0x81000000 (0000ms, 2026ms total)
T36CC 006:632 JLINK_SetBPEx(Addr = 0x08000728, Type = 0xFFFFFFF2)  returns 0x00000035 (0000ms, 2026ms total)
T36CC 006:632 JLINK_SetBPEx(Addr = 0x08000460, Type = 0xFFFFFFF2)  returns 0x00000036 (0000ms, 2026ms total)
T36CC 006:632 JLINK_SetBPEx(Addr = 0x08000436, Type = 0xFFFFFFF2)  returns 0x00000037 (0000ms, 2026ms total)
T36CC 006:632 JLINK_SetBPEx(Addr = 0x0800042C, Type = 0xFFFFFFF2)  returns 0x00000038 (0000ms, 2026ms total)
T36CC 006:632 JLINK_SetBPEx(Addr = 0x0800043E, Type = 0xFFFFFFF2)  returns 0x00000039 (0000ms, 2026ms total)
T36CC 006:632 JLINK_SetBPEx(Addr = 0x0800048A, Type = 0xFFFFFFF2)  returns 0x0000003A (0000ms, 2026ms total)
T36CC 006:632 JLINK_SetBPEx(Addr = 0x080004AA, Type = 0xFFFFFFF2)  returns 0x0000003B (0000ms, 2026ms total)
T36CC 006:632 JLINK_SetBPEx(Addr = 0x080004CE, Type = 0xFFFFFFF2)  returns 0x0000003C (0000ms, 2026ms total)
T36CC 006:632 JLINK_SetBPEx(Addr = 0x080004C6, Type = 0xFFFFFFF2)  returns 0x0000003D (0000ms, 2026ms total)
T36CC 006:632 JLINK_SetBPEx(Addr = 0x080004D8, Type = 0xFFFFFFF2)  returns 0x0000003E (0000ms, 2026ms total)
T36CC 006:632 JLINK_SetBPEx(Addr = 0x0800055A, Type = 0xFFFFFFF2)  returns 0x0000003F (0000ms, 2026ms total)
T36CC 006:632 JLINK_SetBPEx(Addr = 0x0800056C, Type = 0xFFFFFFF2)  returns 0x00000040 (0000ms, 2026ms total)
T36CC 006:632 JLINK_SetBPEx(Addr = 0x08000588, Type = 0xFFFFFFF2)  returns 0x00000041 (0000ms, 2026ms total)
T36CC 006:632 JLINK_SetBPEx(Addr = 0x08000592, Type = 0xFFFFFFF2)  returns 0x00000042 (0000ms, 2026ms total)
T36CC 006:632 JLINK_SetBPEx(Addr = 0x08000444, Type = 0xFFFFFFF2)  returns 0x00000043 (0000ms, 2026ms total)
T36CC 006:632 JLINK_SetBPEx(Addr = 0x08000448, Type = 0xFFFFFFF2)  returns 0x00000044 (0000ms, 2026ms total)
T36CC 006:632 JLINK_SetBPEx(Addr = 0x08000468, Type = 0xFFFFFFF2)  returns 0x00000045 (0000ms, 2026ms total)
T36CC 006:632 JLINK_Go() -- CPU_ReadMem(4 bytes @ 0xE0001000) -- CPU_WriteMem(4 bytes @ 0xE0001004) (0004ms, 2030ms total)
T36CC 006:738 JLINK_IsHalted()  returns TRUE (0003ms, 2033ms total)
T36CC 006:741 JLINK_Halt()  returns 0x00 (0000ms, 2030ms total)
T36CC 006:741 JLINK_IsHalted()  returns TRUE (0000ms, 2030ms total)
T36CC 006:741 JLINK_IsHalted()  returns TRUE (0000ms, 2030ms total)
T36CC 006:741 JLINK_IsHalted()  returns TRUE (0000ms, 2030ms total)
T36CC 006:741 JLINK_ReadReg(R15 (PC))  returns 0x08000444 (0000ms, 2030ms total)
T36CC 006:741 JLINK_ReadReg(XPSR)  returns 0x61000000 (0000ms, 2030ms total)
T36CC 006:741 JLINK_ClrBPEx(BPHandle = 0x00000035)  returns 0x00 (0000ms, 2030ms total)
T36CC 006:741 JLINK_ClrBPEx(BPHandle = 0x00000036)  returns 0x00 (0000ms, 2030ms total)
T36CC 006:741 JLINK_ClrBPEx(BPHandle = 0x00000037)  returns 0x00 (0000ms, 2030ms total)
T36CC 006:741 JLINK_ClrBPEx(BPHandle = 0x00000038)  returns 0x00 (0000ms, 2030ms total)
T36CC 006:741 JLINK_ClrBPEx(BPHandle = 0x00000039)  returns 0x00 (0000ms, 2030ms total)
T36CC 006:741 JLINK_ClrBPEx(BPHandle = 0x0000003A)  returns 0x00 (0000ms, 2030ms total)
T36CC 006:741 JLINK_ClrBPEx(BPHandle = 0x0000003B)  returns 0x00 (0000ms, 2030ms total)
T36CC 006:741 JLINK_ClrBPEx(BPHandle = 0x0000003C)  returns 0x00 (0000ms, 2030ms total)
T36CC 006:741 JLINK_ClrBPEx(BPHandle = 0x0000003D)  returns 0x00 (0000ms, 2030ms total)
T36CC 006:741 JLINK_ClrBPEx(BPHandle = 0x0000003E)  returns 0x00 (0000ms, 2030ms total)
T36CC 006:742 JLINK_ClrBPEx(BPHandle = 0x0000003F)  returns 0x00 (0000ms, 2031ms total)
T36CC 006:742 JLINK_ClrBPEx(BPHandle = 0x00000040)  returns 0x00 (0000ms, 2031ms total)
T36CC 006:742 JLINK_ClrBPEx(BPHandle = 0x00000041)  returns 0x00 (0000ms, 2031ms total)
T36CC 006:742 JLINK_ClrBPEx(BPHandle = 0x00000042)  returns 0x00 (0000ms, 2031ms total)
T36CC 006:742 JLINK_ClrBPEx(BPHandle = 0x00000043)  returns 0x00 (0000ms, 2031ms total)
T36CC 006:742 JLINK_ClrBPEx(BPHandle = 0x00000044)  returns 0x00 (0000ms, 2031ms total)
T36CC 006:742 JLINK_ClrBPEx(BPHandle = 0x00000045)  returns 0x00 (0000ms, 2031ms total)
T36CC 006:742 JLINK_ReadMemU32(0xE000ED30, 0x0001 Items, ...) -- CPU_ReadMem(4 bytes @ 0xE000ED30) - Data: 02 00 00 00  returns 0x01 (0000ms, 2031ms total)
T36CC 006:742 JLINK_ReadMemU32(0xE0001028, 0x0001 Items, ...) -- CPU_ReadMem(4 bytes @ 0xE0001028) - Data: 00 00 00 00  returns 0x01 (0000ms, 2031ms total)
T36CC 006:742 JLINK_ReadMemU32(0xE0001038, 0x0001 Items, ...) -- CPU_ReadMem(4 bytes @ 0xE0001038) - Data: 00 02 00 00  returns 0x01 (0001ms, 2032ms total)
T36CC 006:743 JLINK_ReadMemU32(0xE0001048, 0x0001 Items, ...) -- CPU_ReadMem(4 bytes @ 0xE0001048) - Data: 00 00 00 00  returns 0x01 (0001ms, 2033ms total)
T36CC 006:744 JLINK_ReadMemU32(0xE0001058, 0x0001 Items, ...) -- CPU_ReadMem(4 bytes @ 0xE0001058) - Data: 00 00 00 00  returns 0x01 (0000ms, 2033ms total)
T36CC 006:745 JLINK_ReadReg(R0)  returns 0x0000000D (0000ms, 2033ms total)
T36CC 006:745 JLINK_ReadReg(R1)  returns 0x00000040 (0000ms, 2033ms total)
T36CC 006:745 JLINK_ReadReg(R2)  returns 0x40004400 (0000ms, 2033ms total)
T36CC 006:745 JLINK_ReadReg(R3)  returns 0x00000040 (0000ms, 2033ms total)
T36CC 006:745 JLINK_ReadReg(R4)  returns 0x08037CB4 (0000ms, 2033ms total)
T36CC 006:745 JLINK_ReadReg(R5)  returns 0x08037CB4 (0000ms, 2033ms total)
T36CC 006:745 JLINK_ReadReg(R6)  returns 0x00000000 (0000ms, 2033ms total)
T36CC 006:745 JLINK_ReadReg(R7)  returns 0x00000000 (0000ms, 2033ms total)
T36CC 006:745 JLINK_ReadReg(R8)  returns 0x00000000 (0000ms, 2033ms total)
T36CC 006:745 JLINK_ReadReg(R9)  returns 0x00000000 (0000ms, 2033ms total)
T36CC 006:745 JLINK_ReadReg(R10)  returns 0x00000000 (0000ms, 2033ms total)
T36CC 006:745 JLINK_ReadReg(R11)  returns 0x00000000 (0002ms, 2035ms total)
T36CC 006:747 JLINK_ReadReg(R12)  returns 0x00000003 (0000ms, 2035ms total)
T36CC 006:747 JLINK_ReadReg(R13 (SP))  returns 0x2001BDD0 (0000ms, 2035ms total)
T36CC 006:747 JLINK_ReadReg(R14)  returns 0x080020CB (0000ms, 2035ms total)
T36CC 006:747 JLINK_ReadReg(R15 (PC))  returns 0x08000444 (0000ms, 2035ms total)
T36CC 006:747 JLINK_ReadReg(XPSR)  returns 0x61000000 (0000ms, 2035ms total)
T36CC 006:747 JLINK_ReadReg(MSP)  returns 0x2001BDD0 (0000ms, 2035ms total)
T36CC 006:747 JLINK_ReadReg(PSP)  returns 0x00000000 (0000ms, 2035ms total)
T36CC 006:747 JLINK_ReadReg(CFBP)  returns 0x00000000 (0000ms, 2035ms total)
T36CC 006:747 JLINK_ReadReg(FPSCR)  returns 0x00000000 (0004ms, 2039ms total)
T36CC 006:751 JLINK_ReadReg(FPS0)  returns 0x00000000 (0000ms, 2039ms total)
T36CC 006:751 JLINK_ReadReg(FPS1)  returns 0x00000000 (0000ms, 2039ms total)
T36CC 006:751 JLINK_ReadReg(FPS2)  returns 0x00000000 (0000ms, 2039ms total)
